now 2:left_data=217
now 2:left_data=217
now 2:left_data=217
now 2:left_data=217
now 2:left_data=217
now 2:left_data=217
now 2:left_data=217
now 2:left_data=217
now 2:left_data=217
now 2:left_data=217
now 2:left_data=217
now 2:left_data=217
now 2:left_data=217
now 2:left_data=217
now 2:left_data=217
now 2:left_data=217
now 2:left_data=217
now 2:left_data=217
now 2:left_data=217
now 2:left_data=217
now 2:left_data=217
now 2:left_data=217
now 2:left_data=217
now 2:left_data=217
now 2:left_data=217
now 2:left_data=217
now 2:left_data=217
now 2:left_data=217
now 2:left_data=217
now 2:left_data=217
now 2:left_data=217
now 2:left_data=217
now 2:left_data=217
now 2:left_data=217
now 2:left_data=217
now 2:left_data=217
now 2:left_data=217
now 2:left_data=217
now 2:left_data=217
now 2:left_data=217
now 2:left_data=217
now 2:left_data=217
now 2:left_data=217
now 2:left_data=217
now 2:left_data=217
now 2:left_data=217
now 2:left_data=217
now 2:left_data=217
now 2:left_data=217
now 2:left_data=217
now 2:left_data=217
now 2:left_data=217
now 2:left_data=217
now 2:left_data=217
now 2:left_data=217
now 2:left_data=217
now 2:left_data=217
now 2:left_data=217
now 2:left_data=217
now 2:left_data=217
now 2:left_data=217
now 2:left_data=217
now 2:left_data=217
now 2:left_data=217
now 2:left_data=217
now 2:left_data=217
now 2:left_data=217
now 2:left_data=217
now 2:left_data=217
now 2:left_data=217
now 2:left_data=217
now 2:left_data=217
now 2:left_data=217
now 2:left_data=217
now 2:left_data=217
now 2:left_data=217
now 2:left_data=217
now 2:left_data=217
now 2:left_data=217
now 2:left_data=217
now 2:left_data=217
now 2:left_data=217
now 2:left_data=217
now 2:left_data=217
now 2:left_data=217
now 2:left_data=217
now 2:left_data=217
now 2:left_data=217
now 2:left_data=217
now 2:left_data=217
now 2:left_data=217
now 2:left_data=217
now 2:left_data=217
now 2:left_data=217
now 2:left_data=217
now 2:left_data=217
now 2:left_data=217
now 2:left_data=217
now 2:left_data=217
now 2:left_data=217
now 2:left_data=217
now 2:left_data=217
now 2:left_data=217
now 2:left_data=217
now 2:left_data=217
now 2:left_data=217
now 2:left_data=217
now 2:left_data=217
now 2:left_data=217
now 2:left_data=217
now 2:left_data=217
now 2:left_data=217
now 2:left_data=217
now 2:left_data=217
now 2:left_data=217
now 2:left_data=217
now 2:left_data=217
now 2:left_data=217
now 2:left_data=217
now 2:left_data=217
now 2:left_data=217
now 2:left_data=217
now 2:left_data=217
now 2:left_data=217
now 2:left_data=217
now 2:left_data=217
now 2:left_data=217
now 2:left_data=217
now 2:left_data=217
now 2:left_data=217
now 2:left_data=217
now 2:left_data=217
now 2:left_data=217
now 2:left_data=217
now 2:left_data=217
now 2:left_data=217
now 2:left_data=217
now 2:left_data=217
now 2:left_data=217
now 2:left_data=217
now 2:left_data=217
now 2:left_data=217
now 2:left_data=217
now 2:left_data=217
now 2:left_data=217
now 2:left_data=217
now 2:left_data=217
now 2:left_data=217
now 2:left_data=217
now 2:left_data=217
now 2:left_data=217
now 2:left_data=217
now 2:left_data=217
now 2:left_data=217
now 2:left_data=217
now 2:left_data=217
now 2:left_data=217
now 2:left_data=217
now 2:left_data=217
now 2:left_data=217
now 2:left_data=217
now 2:left_data=217
now 2:left_data=217
now 2:left_data=217
now 2:left_data=217
now 2:left_data=217
now 2:left_data=217
now 2:left_data=217
now 2:left_data=217
now 2:left_data=217
now 2:left_data=217
now 2:left_data=217
now 2:left_data=217
now 2:left_data=217
now 2:left_data=217
now 2:left_data=217
now 2:left_data=217
now 2:left_data=217
now 2:left_data=217
now 2:left_data=217
now 2:left_data=217
now 2:left_data=217
now 2:left_data=217
now 2:left_data=217
now 2:left_data=217
now 2:left_data=217
now 2:left_data=217
now 2:left_data=217
now 2:left_data=217
now 2:left_data=217
now 2:left_data=217
now 2:left_data=217
now 2:left_data=217
now 2:left_data=217
now 1:left_data=216
update 1:left_data=216
update 2:left_data=216

write_reg:reg_addr=24b,reg_data=216,cb_func=c:e445,cb_cunc2=0xffe445
now 2:left_data=216
now 1:left_data=215
update 1:left_data=215
update 2:left_data=215

write_reg:reg_addr=24b,reg_data=215,cb_func=c:e445,cb_cunc2=0xffe445
repeat:reg_addr=9a,data=215
now 2:left_data=215
modbus tx:01 06 02 4B 00 D7 B8 3A
update 1:left_data=215
now 2:left_data=215
now 1:left_data=214
update 1:left_data=214
update 2:left_data=214

write_reg:reg_addr=24b,reg_data=214,cb_func=c:e445,cb_cunc2=0xffe445
now 2:left_data=214
now 1:left_data=213
update 1:left_data=213
update 2:left_data=213

write_reg:reg_addr=24b,reg_data=213,cb_func=c:e445,cb_cunc2=0xffe445
repeat:reg_addr=9a,data=213
now 2:left_data=213
modbus rx:01 06 02 4B 00 D7 B8 3A
modbus cb dealing:cb_func=0xffe445
cb-synmig主界面,左侧：峰值电流=213，峰值速度=70,母材板厚=60
now 1:left_data=212
update 1:left_data=212
update 2:left_data=212

write_reg:reg_addr=24b,reg_data=212,cb_func=c:e445,cb_cunc2=0xffe445
repeat:reg_addr=9a,data=212
now 2:left_data=212
modbus tx:01 06 02 4B 00 D4 F8 3B
now 1:left_data=211
update 1:left_data=211
update 2:left_data=211

write_reg:reg_addr=24b,reg_data=211,cb_func=c:e445,cb_cunc2=0xffe445
now 2:left_data=211
now 1:left_data=210
update 1:left_data=210
update 2:left_data=210

write_reg:reg_addr=24b,reg_data=210,cb_func=c:e445,cb_cunc2=0xffe445
repeat:reg_addr=9a,data=210
now 2:left_data=210
modbus rx:01 06 02 4B 00 D4 F8 3B
modbus cb dealing:cb_func=0xffe445
cb-synmig主界面,左侧：峰值电流=210，峰值速度=70,母材板厚=60
update 1:left_data=210
now 2:left_data=210
modbus tx:01 06 02 4B 00 D2 78 39
now 1:left_data=209
update 1:left_data=209
update 2:left_data=209

write_reg:reg_addr=24b,reg_data=209,cb_func=c:e445,cb_cunc2=0xffe445
now 2:left_data=209
now 1:left_data=208
update 1:left_data=208
update 2:left_data=208

write_reg:reg_addr=24b,reg_data=208,cb_func=c:e445,cb_cunc2=0xffe445
repeat:reg_addr=9a,data=208
now 2:left_data=208
modbus rx:01 06 02 4B 00 D2 78 39
modbus cb dealing:cb_func=0xffe445
cb-synmig主界面,左侧：峰值电流=208，峰值速度=70,母材板厚=60
now 1:left_data=207
update 1:left_data=207
update 2:left_data=207

write_reg:reg_addr=24b,reg_data=207,cb_func=c:e445,cb_cunc2=0xffe445
repeat:reg_addr=9a,data=207
now 2:left_data=207
modbus tx:01 06 02 4B 00 CF B8 30
update 1:left_data=207
now 2:left_data=207
update 1:left_data=207
now 2:left_data=207
now 1:left_data=206
update 1:left_data=206
update 2:left_data=206

write_reg:reg_addr=24b,reg_data=206,cb_func=c:e445,cb_cunc2=0xffe445
now 2:left_data=206
modbus rx:01 06 02 4B 00 CF B8 30
modbus cb dealing:cb_func=0xffe445
cb-synmig主界面,左侧：峰值电流=206，峰值速度=70,母材板厚=60
update 1:left_data=206
now 2:left_data=206
modbus tx:01 06 02 4B 00 CE 79 F0
now 1:left_data=205
update 1:left_data=205
update 2:left_data=205

write_reg:reg_addr=24b,reg_data=205,cb_func=c:e445,cb_cunc2=0xffe445
now 2:left_data=205
update 1:left_data=205
now 2:left_data=205
modbus rx:01 06 02 4B 00 CE 79 F0
modbus cb dealing:cb_func=0xffe445
cb-synmig主界面,左侧：峰值电流=205，峰值速度=70,母材板厚=60
now 1:left_data=204
update 1:left_data=204
update 2:left_data=204

write_reg:reg_addr=24b,reg_data=204,cb_func=c:e445,cb_cunc2=0xffe445
repeat:reg_addr=9a,data=204
now 2:left_data=204
modbus tx:01 06 02 4B 00 CC F8 31
now 1:left_data=203
update 1:left_data=203
update 2:left_data=203

write_reg:reg_addr=24b,reg_data=203,cb_func=c:e445,cb_cunc2=0xffe445
now 2:left_data=203
update 1:left_data=203
now 2:left_data=203
modbus rx:01 06 02 4B 00 CC F8 31
modbus cb dealing:cb_func=0xffe445
cb-synmig主界面,左侧：峰值电流=203，峰值速度=70,母材板厚=60
now 1:left_data=202
update 1:left_data=202
update 2:left_data=202

write_reg:reg_addr=24b,reg_data=202,cb_func=c:e445,cb_cunc2=0xffe445
repeat:reg_addr=9a,data=202
now 2:left_data=202
modbus tx:01 06 02 4B 00 CA 78 33
now 1:left_data=201
update 1:left_data=201
update 2:left_data=201

write_reg:reg_addr=24b,reg_data=201,cb_func=c:e445,cb_cunc2=0xffe445
now 2:left_data=201
update 1:left_data=201
now 2:left_data=201
modbus rx:01 06 02 4B 00 CA 78 33
modbus cb dealing:cb_func=0xffe445
cb-synmig主界面,左侧：峰值电流=201，峰值速度=70,母材板厚=60
now 1:left_data=200
update 1:left_data=200
update 2:left_data=200

write_reg:reg_addr=24b,reg_data=200,cb_func=c:e445,cb_cunc2=0xffe445
repeat:reg_addr=9a,data=200
now 2:left_data=200
modbus tx:01 06 02 4B 00 C8 F9 F2
update 1:left_data=200
now 2:left_data=200
update 1:left_data=200
now 2:left_data=200
update 1:left_data=200
now 2:left_data=200
modbus rx:01 06 02 4B 00 C8 F9 F2
modbus cb dealing:cb_func=0xffe445
cb-synmig主界面,左侧：峰值电流=200，峰值速度=70,母材板厚=60
update 1:left_data=200
now 2:left_data=200
update 1:left_data=200
now 2:left_data=200
update 1:left_data=200
now 2:left_data=200
update 1:left_data=200
now 2:left_data=200
update 1:left_data=200
now 2:left_data=200
 update external param

readn_order_reg:reg_addr=20,reg_num=65,cb_func=c:b661,cb_cunc2=0xffb661
update 1:left_data=200
now 2:left_data=200
modbus tx:01 03 00 20 00 41 84 30
update 1:left_data=200
now 2:left_data=200
update 1:left_data=200
now 2:left_data=200
update 1:left_data=200
now 2:left_data=200
update 1:left_data=200
now 2:left_data=200
update 1:left_data=200
now 2:left_data=200
modbus rx:01 03 82 00 07 02 4A 00 3C 02 6C 01 0F 02 86 00 53 02 4C 01 0F 02 8C 01 0F 02 66 00 D8 02 44 00 37 00 00 00 00 00 00 00 00 00 00 00 00 00 00 00 00 00 00 00 00 00 00 00 00 00 00 00 00 00 00 00 00 00 00 00 00 00 00 00 00 00 00 00 00 00 00 00 00 00 00 00 00 00 00 00 00 00 00 00 00 00 00 00 00 00 00 00 00 00 00 00 00 00 00 00 00 00 00 00 00 00 00 00 00 00 00 00 00 00 00 00 00 00 00 00 00 00 00 00 00 4F E4
modbus cb dealing:cb_func=0xffb661
cb_query_external_param:reg_num=7
 data[1]:reg_addr=24a,reg_data=60,addr=99,data=60
 data[2]:reg_addr=26c,reg_data=271,addr=67,data=271
 data[3]:reg_addr=286,reg_data=83,addr=7b,data=83
 data[4]:reg_addr=24c,reg_data=271,addr=9b,data=271
 data[5]:reg_addr=28c,reg_data=271,addr=81,data=271
 data[6]:reg_addr=266,reg_data=216,addr=61,data=216
 data[7]:reg_addr=244,reg_data=55,addr=93,data=55

refresh test：i=0,pageid_now=0,pageid_old=25,pageid_pre=68
page_effect_init: 0, 1, 21, 29, 25, 26, 33, 3, 11, 13, 16,
 update 1:left_data=200
now 2:left_data=200
update 1:left_data=200
now 2:left_data=200
update 1:left_data=200
now 2:left_data=200
update 1:left_data=200
now 2:left_data=200
update 1:left_data=200
now 2:left_data=200
now 1:left_data=199
update 1:left_data=199
update 2:left_data=199

write_reg:reg_addr=24b,reg_data=199,cb_func=c:e445,cb_cunc2=0xffe445
now 2:left_data=199
now 1:left_data=197
update 1:left_data=197
update 2:left_data=197

write_reg:reg_addr=24b,reg_data=197,cb_func=c:e445,cb_cunc2=0xffe445
repeat:reg_addr=9a,data=197
now 2:left_data=197
modbus tx:01 06 02 4B 00 C5 38 37
now 1:left_data=193
update 1:left_data=193
update 2:left_data=193

write_reg:reg_addr=24b,reg_data=193,cb_func=c:e445,cb_cunc2=0xffe445
now 2:left_data=193
now 1:left_data=187
update 1:left_data=187
update 2:left_data=187

write_reg:reg_addr=24b,reg_data=187,cb_func=c:e445,cb_cunc2=0xffe445
repeat:reg_addr=9a,data=187
now 2:left_data=187
modbus rx:01 06 02 4B 00 C5 38 37
modbus cb dealing:cb_func=0xffe445
cb-synmig主界面,左侧：峰值电流=187，峰值速度=60,母材板厚=55
now 1:left_data=180
update 1:left_data=180
update 2:left_data=180

write_reg:reg_addr=24b,reg_data=180,cb_func=c:e445,cb_cunc2=0xffe445
repeat:reg_addr=9a,data=180
now 2:left_data=180
modbus tx:01 06 02 4B 00 B4 F8 13
now 1:left_data=171
update 1:left_data=171
update 2:left_data=171

write_reg:reg_addr=24b,reg_data=171,cb_func=c:e445,cb_cunc2=0xffe445
now 2:left_data=171
now 1:left_data=159
update 1:left_data=159
update 2:left_data=159

write_reg:reg_addr=24b,reg_data=159,cb_func=c:e445,cb_cunc2=0xffe445
repeat:reg_addr=9a,data=159
now 2:left_data=159
modbus rx:01 06 02 4B 00 B4 F8 13
modbus cb dealing:cb_func=0xffe445
cb-synmig主界面,左侧：峰值电流=159，峰值速度=60,母材板厚=55
now 1:left_data=143
update 1:left_data=143
update 2:left_data=143

write_reg:reg_addr=24b,reg_data=143,cb_func=c:e445,cb_cunc2=0xffe445
repeat:reg_addr=9a,data=143
now 2:left_data=143
modbus tx:01 06 02 4B 00 8F B9 C0
now 1:left_data=124
update 1:left_data=124
update 2:left_data=124

write_reg:reg_addr=24b,reg_data=124,cb_func=c:e445,cb_cunc2=0xffe445
now 2:left_data=124
update 1:left_data=124
now 2:left_data=124
modbus rx:01 06 02 4B 00 8F B9 C0
modbus cb dealing:cb_func=0xffe445
cb-synmig主界面,左侧：峰值电流=124，峰值速度=60,母材板厚=55
now 1:left_data=123
update 1:left_data=123
update 2:left_data=123

write_reg:reg_addr=24b,reg_data=123,cb_func=c:e445,cb_cunc2=0xffe445
repeat:reg_addr=9a,data=123
now 2:left_data=123
modbus tx:01 06 02 4B 00 7B B8 47
now 1:left_data=122
update 1:left_data=122
update 2:left_data=122

write_reg:reg_addr=24b,reg_data=122,cb_func=c:e445,cb_cunc2=0xffe445
now 2:left_data=122
update 1:left_data=122
now 2:left_data=122
modbus rx:01 06 02 4B 00 7B B8 47
modbus cb dealing:cb_func=0xffe445
cb-synmig主界面,左侧：峰值电流=122，峰值速度=60,母材板厚=55
now 1:left_data=121
update 1:left_data=121
update 2:left_data=121

write_reg:reg_addr=24b,reg_data=121,cb_func=c:e445,cb_cunc2=0xffe445
repeat:reg_addr=9a,data=121
now 2:left_data=121
modbus tx:01 06 02 4B 00 79 39 86
update 1:left_data=121
now 2:left_data=121
update 1:left_data=121
now 2:left_data=121
update 1:left_data=121
now 2:left_data=121
modbus rx:01 06 02 4B 00 79 39 86
modbus cb dealing:cb_func=0xffe445
cb-synmig主界面,左侧：峰值电流=121，峰值速度=60,母材板厚=55
update 1:left_data=121
now 2:left_data=121
update 1:left_data=121
now 2:left_data=121
update 1:left_data=121
now 2:left_data=121
update 1:left_data=121
now 2:left_data=121
update 1:left_data=121
now 2:left_data=121
 update external param

readn_order_reg:reg_addr=20,reg_num=65,cb_func=c:b661,cb_cunc2=0xffb661
update 1:left_data=121
now 2:left_data=121
modbus tx:01 03 00 20 00 41 84 30
update 1:left_data=121
now 2:left_data=121
update 1:left_data=121
now 2:left_data=121
update 1:left_data=121
now 2:left_data=121
update 1:left_data=121
now 2:left_data=121
update 1:left_data=121
now 2:left_data=121
modbus rx:01 03 82 00 07 02 4A 00 19 02 44 00 0F 02 6C 00 EB 02 86 00 5E 02 4C 00 EB 02 8C 00 EB 02 66 00 CD 00 00 00 00 00 00 00 00 00 00 00 00 00 00 00 00 00 00 00 00 00 00 00 00 00 00 00 00 00 00 00 00 00 00 00 00 00 00 00 00 00 00 00 00 00 00 00 00 00 00 00 00 00 00 00 00 00 00 00 00 00 00 00 00 00 00 00 00 00 00 00 00 00 00 00 00 00 00 00 00 00 00 00 00 00 00 00 00 00 00 00 00 00 00 00 00 00 00 00 00 9E 32
modbus cb dealing:cb_func=0xffb661
cb_query_external_param:reg_num=7
 data[1]:reg_addr=24a,reg_data=25,addr=99,data=25
 data[2]:reg_addr=244,reg_data=15,addr=93,data=15
 data[3]:reg_addr=26c,reg_data=235,addr=67,data=235
 data[4]:reg_addr=286,reg_data=94,addr=7b,data=94
 data[5]:reg_addr=24c,reg_data=235,addr=9b,data=235
 data[6]:reg_addr=28c,reg_data=235,addr=81,data=235
 data[7]:reg_addr=266,reg_data=205,addr=61,data=205

refresh test：i=0,pageid_now=0,pageid_old=25,pageid_pre=102
page_effect_init: 0, 1, 21, 29, 25, 26, 33, 3, 11, 13, 16,
 update 1:left_data=121
now 2:left_data=121
update 1:left_data=121
now 2:left_data=121
update 1:left_data=121
now 2:left_data=121
now 1:left_data=120
update 1:left_data=120
update 2:left_data=120

write_reg:reg_addr=24b,reg_data=120,cb_func=c:e445,cb_cunc2=0xffe445
now 2:left_data=120
now 1:left_data=117
update 1:left_data=117
update 2:left_data=117

write_reg:reg_addr=24b,reg_data=117,cb_func=c:e445,cb_cunc2=0xffe445
repeat:reg_addr=9a,data=117
now 2:left_data=117
now 1:left_data=112
update 1:left_data=112
update 2:left_data=112

write_reg:reg_addr=24b,reg_data=112,cb_func=c:e445,cb_cunc2=0xffe445
repeat:reg_addr=9a,data=112
now 2:left_data=112
now 1:left_data=105
update 1:left_data=105
update 2:left_data=105

write_reg:reg_addr=24b,reg_data=105,cb_func=c:e445,cb_cunc2=0xffe445
repeat:reg_addr=9a,data=105
now 2:left_data=105
modbus tx:01 06 02 4B 00 69 38 4A
now 1:left_data=95
update 1:left_data=95
update 2:left_data=95

write_reg:reg_addr=24b,reg_data=95,cb_func=c:e445,cb_cunc2=0xffe445
now 2:left_data=95
now 1:left_data=83
update 1:left_data=83
update 2:left_data=83

write_reg:reg_addr=24b,reg_data=83,cb_func=c:e445,cb_cunc2=0xffe445
repeat:reg_addr=9a,data=83
now 2:left_data=83
modbus rx:01 06 02 4B 00 69 38 4A
modbus cb dealing:cb_func=0xffe445
cb-synmig主界面,左侧：峰值电流=83，峰值速度=25,母材板厚=15
now 1:left_data=69
update 1:left_data=69
update 2:left_data=69

write_reg:reg_addr=24b,reg_data=69,cb_func=c:e445,cb_cunc2=0xffe445
repeat:reg_addr=9a,data=69

smig left out bound:peak_current,g_now=69,now=69,min=80,max=355
now 2:left_data=80
modbus tx:01 06 02 4B 00 45 39 97
now 1:left_data=79
update 1:left_data=79
update 2:left_data=79

write_reg:reg_addr=24b,reg_data=79,cb_func=c:e445,cb_cunc2=0xffe445

smig left out bound:peak_current,g_now=79,now=79,min=80,max=355
now 2:left_data=80
update 1:left_data=80
update 2:left_data=80

write_reg:reg_addr=24b,reg_data=80,cb_func=c:e445,cb_cunc2=0xffe445
repeat:reg_addr=9a,data=80
now 2:left_data=80
modbus rx:01 06 02 4B 00 45 39 97
modbus cb dealing:cb_func=0xffe445
cb-synmig主界面,左侧：峰值电流=80，峰值速度=25,母材板厚=15
update 1:left_data=80
now 2:left_data=80
modbus tx:01 06 02 4B 00 50 F8 58
update 1:left_data=80
now 2:left_data=80
update 1:left_data=80
now 2:left_data=80
update 1:left_data=80
now 2:left_data=80
modbus rx:01 06 02 4B 00 50 F8 58
modbus cb dealing:cb_func=0xffe445
cb-synmig主界面,左侧：峰值电流=80，峰值速度=25,母材板厚=15
update 1:left_data=80
now 2:left_data=80
update 1:left_data=80
now 2:left_data=80
update 1:left_data=80
now 2:left_data=80
update 1:left_data=80
now 2:left_data=80
now 1:left_data=83
update 1:left_data=83
update 2:left_data=83

write_reg:reg_addr=24b,reg_data=83,cb_func=c:e445,cb_cunc2=0xffe445
now 2:left_data=83
 update external param

readn_order_reg:reg_addr=20,reg_num=65,cb_func=c:b661,cb_cunc2=0xffb661
now 1:left_data=92
update 1:left_data=92
update 2:left_data=92

write_reg:reg_addr=24b,reg_data=92,cb_func=c:e445,cb_cunc2=0xffe445
repeat:reg_addr=9a,data=92
now 2:left_data=92
modbus tx:01 06 02 4B 00 5C F8 5D
now 1:left_data=105
update 1:left_data=105
update 2:left_data=105

write_reg:reg_addr=24b,reg_data=105,cb_func=c:e445,cb_cunc2=0xffe445
now 2:left_data=105
now 1:left_data=122
update 1:left_data=122
update 2:left_data=122

write_reg:reg_addr=24b,reg_data=122,cb_func=c:e445,cb_cunc2=0xffe445
repeat:reg_addr=9a,data=122
now 2:left_data=122
modbus rx:01 06 02 4B 00 5C F8 5D
modbus cb dealing:cb_func=0xffe445
cb-synmig主界面,左侧：峰值电流=122，峰值速度=25,母材板厚=15
now 1:left_data=144
update 1:left_data=144
update 2:left_data=144

write_reg:reg_addr=24b,reg_data=144,cb_func=c:e445,cb_cunc2=0xffe445
repeat:reg_addr=9a,data=144
now 2:left_data=144
modbus tx:01 03 00 20 00 41 84 30
now 1:left_data=170
update 1:left_data=170
update 2:left_data=170

write_reg:reg_addr=24b,reg_data=170,cb_func=c:e445,cb_cunc2=0xffe445
repeat:reg_addr=9a,data=170
now 2:left_data=170
now 1:left_data=199
update 1:left_data=199
update 2:left_data=199

write_reg:reg_addr=24b,reg_data=199,cb_func=c:e445,cb_cunc2=0xffe445
repeat:reg_addr=9a,data=199
now 2:left_data=199
update 1:left_data=199
now 2:left_data=199
update 1:left_data=199
now 2:left_data=199
modbus rx:01 03 82 00 08 02 4A 00 12 02 44 00 0A 02 8C 00 D7 02 6C 00 D7 02 86 00 64 02 66 00 C7 02 4C 00 D7 02 4B 00 50 00 00 00 00 00 00 00 00 00 00 00 00 00 00 00 00 00 00 00 00 00 00 00 00 00 00 00 00 00 00 00 00 00 00 00 00 00 00 00 00 00 00 00 00 00 00 00 00 00 00 00 00 00 00 00 00 00 00 00 00 00 00 00 00 00 00 00 00 00 00 00 00 00 00 00 00 00 00 00 00 00 00 00 00 00 00 00 00 00 00 00 00 00 00 00 00 0F 2E
modbus cb dealing:cb_func=0xffb661
cb_query_external_param:reg_num=8
 data[1]:reg_addr=24a,reg_data=18,addr=99,data=18
 data[2]:reg_addr=244,reg_data=10,addr=93,data=10
 data[3]:reg_addr=28c,reg_data=215,addr=81,data=215
 data[4]:reg_addr=26c,reg_data=215,addr=67,data=215
 data[5]:reg_addr=286,reg_data=100,addr=7b,data=100
 data[6]:reg_addr=266,reg_data=199,addr=61,data=199
 data[7]:reg_addr=24c,reg_data=215,addr=9b,data=215
 data[8]:reg_addr=24b,reg_data=80,addr=9a,data=80

refresh test：i=0,pageid_now=0,pageid_old=25,pageid_pre=75
page_effect_init: 0, 1, 21, 29, 25, 26, 33, 3, 11, 13, 16,
 update 1:left_data=80
now 2:left_data=80

smig right out bound:arc_length,g_now=50,now=200,min=100,max=199
update 1:left_data=80
now 2:left_data=80
modbus tx:01 06 02 4B 00 50 F8 58
update 1:left_data=80
now 2:left_data=80
update 1:left_data=80
now 2:left_data=80
update 1:left_data=80
now 2:left_data=80
modbus rx:01 06 02 4B 00 50 F8 58
modbus cb dealing:cb_func=0xffe445
cb-synmig主界面,左侧：峰值电流=80，峰值速度=18,母材板厚=10
update 1:left_data=80
now 2:left_data=80
update 1:left_data=80
now 2:left_data=80
update 1:left_data=80
now 2:left_data=80
update 1:left_data=80
now 2:left_data=80
update 1:left_data=80
now 2:left_data=80
update 1:left_data=80
now 2:left_data=80
update 1:left_data=80
now 2:left_data=80
update 1:left_data=80
now 2:left_data=80
update 1:left_data=80
now 2:left_data=80
update 1:left_data=80
now 2:left_data=80
update 1:left_data=80
now 2:left_data=80
update 1:left_data=80
now 2:left_data=80
now 1:left_data=81
update 1:left_data=81
update 2:left_data=81

write_reg:reg_addr=24b,reg_data=81,cb_func=c:e445,cb_cunc2=0xffe445
now 2:left_data=81
update 1:left_data=81
now 2:left_data=81
update 1:left_data=81
now 2:left_data=81
update 1:left_data=81
now 2:left_data=81
modbus tx:01 06 02 4B 00 51 39 98
update 1:left_data=81
now 2:left_data=81
update 1:left_data=81
now 2:left_data=81
update 1:left_data=81
now 2:left_data=81
modbus rx:01 06 02 4B 00 51 39 98
modbus cb dealing:cb_func=0xffe445
cb-synmig主界面,左侧：峰值电流=81，峰值速度=18,母材板厚=10
update 1:left_data=81
now 2:left_data=81
update 1:left_data=81
now 2:left_data=81
update 1:left_data=81
now 2:left_data=81
update 1:left_data=81
now 2:left_data=81
update 1:left_data=81
now 2:left_data=81
update 1:left_data=81
now 2:left_data=81
update 1:left_data=81
now 2:left_data=81
update 1:left_data=81
now 2:left_data=81
update 1:left_data=81
now 2:left_data=81
update 1:left_data=81
now 2:left_data=81
update 1:left_data=81
now 2:left_data=81
update 1:left_data=81
now 2:left_data=81
update 1:left_data=81
now 2:left_data=81
update 1:left_data=81
now 2:left_data=81
update 1:left_data=81
now 2:left_data=81
update 1:left_data=81
now 2:left_data=81
update 1:left_data=81
now 2:left_data=81
update 1:left_data=81
now 2:left_data=81
update 1:left_data=81
now 2:left_data=81
update 1:left_data=81
now 2:left_data=81
update 1:left_data=81
now 2:left_data=81
update 1:left_data=81
now 2:left_data=81
update 1:left_data=81
now 2:left_data=81
now 2:left_data=81
now 2:left_data=81
now 2:left_data=81
now 2:left_data=81
now 2:left_data=81
now 2:left_data=81
now 2:left_data=81
now 2:left_data=81
now 2:left_data=81
now 2:left_data=81
now 2:left_data=81
now 2:left_data=81
now 2:left_data=81
now 2:left_data=81
now 2:left_data=81
now 2:left_data=81
now 2:left_data=81
now 2:left_data=81
now 2:left_data=81
now 2:left_data=81
now 2:left_data=81
now 2:left_data=81
now 2:left_data=81
now 2:left_data=81
now 2:left_data=81
now 2:left_data=81
now 2:left_data=81
now 2:left_data=81
now 2:left_data=81
now 2:left_data=81
now 2:left_data=81
now 2:left_data=81
now 2:left_data=81
now 2:left_data=81
now 2:left_data=81
now 2:left_data=81
now 2:left_data=81
now 2:left_data=81
now 2:left_data=81
now 2:left_data=81
now 2:left_data=81
now 2:left_data=81
now 2:left_data=81
now 2:left_data=81
now 2:left_data=81
now 2:left_data=81
now 2:left_data=81
now 2:left_data=81
now 2:left_data=81
now 2:left_data=81
now 2:left_data=81
now 2:left_data=81
now 2:left_data=81
now 2:left_data=81
now 2:left_data=81
now 2:left_data=81
now 2:left_data=81
now 2:left_data=81
now 2:left_data=81
now 2:left_data=81
now 2:left_data=81
now 2:left_data=81
now 2:left_data=81
now 2:left_data=81
